FPGA tests
##############################################
9, Sep., 2019    Jack Lee

system, 0x2F is maximum address

::

   i2cdump -f -y 0 0x30

No size specified (using byte-data access)
     0  1  2  3  4  5  6  7  8  9  a  b  c  d  e  f    0123456789abcdef
00: 00 1c 00 00 4e 0f 00 00 00 00 00 00 00 00 00 00    .?..N?..........
10: 00 00 14 44 02 00 00 00 00 00 00 00 00 81 01 0a    ..?D?........???
20: 00 00 2d 09 00 00 00 00 00 00 00 00 00 00 d0 02    ..-?..........??
30: e0 01 1e 00 02 00 00 00 00 00 00 00 00 00 00 00    ???.?...........
40: 00 1c 00 00 4e 0f 00 00 00 00 00 00 00 00 00 00    .?..N?..........
50: 00 00 14 44 02 00 00 00 00 00 00 00 00 81 01 0a    ..?D?........???
60: 00 00 2d 09 00 00 00 00 00 00 00 00 00 00 d0 02    ..-?..........??
70: e0 01 1e 00 02 00 00 00 00 00 00 00 00 00 00 00    ???.?...........
80: 00 1c 00 00 4e 0f 00 00 00 00 00 00 00 00 00 00    .?..N?..........
90: 00 00 14 44 02 00 00 00 00 00 00 00 00 81 01 0a    ..?D?........???
a0: 00 00 2d 09 00 00 00 00 00 00 00 00 00 00 d0 02    ..-?..........??
b0: e0 01 1e 00 02 00 00 00 00 00 00 00 00 00 00 00    ???.?...........
c0: 00 1c 00 00 4e 0f 00 00 00 00 00 00 00 00 00 00    .?..N?..........
d0: 00 00 14 44 02 00 00 00 00 00 00 00 00 81 01 0a    ..?D?........???
e0: 00 00 2d 09 00 00 00 00 00 00 00 00 00 00 d0 02    ..-?..........??
f0: e0 01 1e 00 02 00 00 00 00 00 00 00 00 00 00 00    ???.?...........


TX read width: 1920
i2cget -f -y 0 0x30 0x2e
0x80
i2cget -f -y 0 0x30 0x2F
0x07

RX write width:
i2cset -f -y 0 0x30 0x47 0x80
i2cset -f -y 0 0x30 0x48 0x07

i2cget -f -y 0 0x34 0x0


"height":	1080,
				"width":	1920,
				"fps":	"60",
				"colorSpace":	"YCbCr-4:2:2",
				"depth":	12,
				"payloadType":	96,
				"intlce":	3

apiClient -c set -a 192.168.168.103 -m "02:01:03:04:05:06" -d  '{"video":{"height": 1920, "width":1080, "fps":"60", "colorSpace": "YCbCr-4:2:2", "depth":10, "intlce":3}}'
